Circuit: * C:\Users\bode_\Desktop\proiect scia\PGA.asc

Direct Newton iteration failed to find .op point.  (Use ".option noopiter" to skip.)
Starting Gmin stepping
Gmin = 10
Gmin = 1.07374
Gmin = 0.115292
Gmin = 0.0123794
Gmin = 0.00132923
Gmin = 0.000142725
Gmin = 1.5325e-05
Gmin = 1.6455e-06
Gmin = 1.76685e-07
Gmin = 1.89714e-08
Gmin = 2.03704e-09
Gmin = 2.18725e-10
Gmin = 2.34854e-11
Gmin = 2.52173e-12
Gmin = 2.70769e-13
Gmin = 0
Gmin stepping succeeded in finding the operating point.

Semiconductor Device Operating Points:
                        --- Diodes ---
Name:    d:u6:21     d:u6:22     d:u6:5      d:u6:6      d:u6:1
Model:   u6:esd      u6:esd       u6:x1       u6:x2       u6:iq
Id:     -1.50e-11   -1.50e-11   -7.50e-06   -7.50e-06    7.00e-04
Vd:     -1.50e+01   -1.50e+01   -1.50e+01   -1.50e+01    3.00e+01
Req:     1.00e-12    1.00e-12    5.00e-07    5.00e-07    5.00e-04
CAP:     0.00e+00    0.00e+00    0.00e+00    0.00e+00    0.00e+00

Name:    d:u6:2      d:u6:3      d:u3:3      d:u3:2      d:u3:1
Model:  u6:20ohm     u6:45ma      u3:s        u3:s        u3:s
Id:      2.00e-12   -2.00e-12   -1.50e-08   -1.50e-08   -1.50e-08
Vd:      6.00e-11   -2.00e-11   -1.50e+01   -1.50e+01   -1.50e+01
Req:     1.00e-01    1.00e-01    1.00e-09    1.00e-09    1.00e-09
CAP:     0.00e+00    0.00e+00    0.00e+00    0.00e+00    0.00e+00

Name:    d:u3:4      d:u1:3      d:u1:2      d:u1:1      d:u1:4
Model:    u3:s        u1:s        u1:s        u1:s        u1:s
Id:     -1.50e-08   -1.50e-08   -1.50e-08   -1.50e-08   -1.50e-08
Vd:     -1.50e+01   -1.50e+01   -1.50e+01   -1.50e+01   -1.50e+01
Req:     1.00e-09    1.00e-09    1.00e-09    1.00e-09    1.00e-09
CAP:     0.00e+00    0.00e+00    0.00e+00    0.00e+00    0.00e+00

Name:    d:u2:3      d:u2:2      d:u2:1      d:u2:4      d:u4:3
Model:    u2:s        u2:s        u2:s        u2:s        u4:s
Id:     -1.50e-08   -1.50e-08   -1.50e-08   -1.50e-08   -1.50e-08
Vd:     -1.50e+01   -1.50e+01   -1.50e+01   -1.50e+01   -1.50e+01
Req:     1.00e-09    1.00e-09    1.00e-09    1.00e-09    1.00e-09
CAP:     0.00e+00    0.00e+00    0.00e+00    0.00e+00    0.00e+00

Name:    d:u4:2      d:u4:1      d:u4:4      d:u5:3      d:u5:2
Model:    u4:s        u4:s        u4:s        u5:s        u5:s
Id:     -1.50e-08   -1.50e-08   -1.50e-08   -1.50e-08   -1.50e-08
Vd:     -1.50e+01   -1.50e+01   -1.50e+01   -1.50e+01   -1.50e+01
Req:     1.00e-09    1.00e-09    1.00e-09    1.00e-09    1.00e-09
CAP:     0.00e+00    0.00e+00    0.00e+00    0.00e+00    0.00e+00

Name:    d:u5:1      d:u5:4
Model:    u5:s        u5:s
Id:     -1.50e-08   -1.50e-08
Vd:     -1.50e+01   -1.50e+01
Req:     1.00e-09    1.00e-09
CAP:     0.00e+00    0.00e+00

                        --- VDMOSFET Transistors ---
Name:        m:u3:2      m:u3:1      m:u1:2      m:u1:1      m:u2:2
Model:        u3:p        u3:n        u1:p        u1:n        u2:p
Id:          1.72e-17   -1.81e-17    6.72e-26   -6.72e-26    6.72e-26
Vgs:        -8.90e+00    6.60e+00    2.11e+01   -2.34e+01    2.11e+01
Vds:         4.32e-15   -4.32e-15    6.72e-14   -6.72e-14    6.72e-14
Vth:        -1.00e-01    1.00e-01   -1.00e-01    1.00e-01   -1.00e-01
Gm:          1.95e-18    2.78e-18    0.00e+00    0.00e+00    0.00e+00
Gds:         4.84e-03    6.79e-03    0.00e+00    0.00e+00    0.00e+00
Cgs:         1.06e-14    7.07e-15    1.06e-14    7.07e-15    1.06e-14
Cgd:         0.00e+00    0.00e+00    0.00e+00    0.00e+00    0.00e+00
Cbody:       0.00e+00    0.00e+00    0.00e+00    0.00e+00    0.00e+00

Name:        m:u2:1      m:u4:2      m:u4:1      m:u5:2      m:u5:1
Model:        u2:n        u4:p        u4:n        u5:p        u5:n
Id:         -6.72e-26    6.72e-26   -6.72e-26    6.72e-26   -6.72e-26
Vgs:        -2.34e+01    2.11e+01   -2.34e+01    2.11e+01   -2.34e+01
Vds:        -6.72e-14    6.72e-14   -6.72e-14    6.72e-14   -6.72e-14
Vth:         1.00e-01   -1.00e-01    1.00e-01   -1.00e-01    1.00e-01
Gm:          0.00e+00    0.00e+00    0.00e+00    0.00e+00    0.00e+00
Gds:         0.00e+00    0.00e+00    0.00e+00    0.00e+00    0.00e+00
Cgs:         7.07e-15    1.06e-14    7.07e-15    1.06e-14    7.07e-15
Cgd:         0.00e+00    0.00e+00    0.00e+00    0.00e+00    0.00e+00
Cbody:       0.00e+00    0.00e+00    0.00e+00    0.00e+00    0.00e+00


.step control=1
.step control=2
.step control=3
.step control=4
.step control=5

Date: Wed Jan 10 15:50:25 2024
Total elapsed time: 0.439 seconds.

tnom = 27
temp = 27
method = trap
totiter = 369
traniter = 0
tranpoints = 0
accept = 0
rejected = 0
matrix size = 74
fillins = 36
solver = Normal
Avg thread counts: 2.8/0.0/3.0/1.3
Matrix Compiler1:     311 opcodes
Matrix Compiler2: 7.85 KB object code size  1.2/1.8/[0.8]

